(1673456017.717287) can0 0A20FF00#
(1673456017.719277) can0 0A41FF00#
(1673456017.719279) can0 0A53FF00#
(1673456017.719281) can0 0A43FF00#
(1673456017.719283) can0 0B530100#0B005D000101AC
(1673456017.719288) can0 0B530200#0B005C000101AC
(1673456017.719290) can0 0B530300#0B0062000101AC
(1673456017.720267) can0 0A10FF00#
(1673456017.720273) can0 0B530400#0B0064000101AC
(1673456017.721266) can0 0A31FF00#
(1673456017.721271) can0 0B310000#0F00FF000101AC
(1673456017.724267) can0 0A310080#
(1673456017.724273) can0 0A310080#
(1673456017.725267) can0 0A310090#
(1673456017.725272) can0 0A310090#
(1673456017.725274) can0 0B310080#0024
(1673456017.726266) can0 0B310080#0024
(1673456017.726271) can0 0B310090#FFFFFFFF
(1673456017.727263) can0 0B310090#FFFFFFFF
(1673456027.590283) can0 0A310080#0014
(1673456027.591267) can0 0B310080#0014
(1673456029.155289) can0 0A310080#0015
(1673456029.157281) can0 0B310080#0015
(1673456030.587280) can0 0A310080#0017
(1673456030.588268) can0 0B310080#0017
(1673456031.850268) can0 0A310080#0028
(1673456031.852255) can0 0B310080#0028
(1673456033.372290) can0 0A310080#0033
(1673456033.374267) can0 0B310080#0032
(1673456035.019293) can0 0A310080#003F
(1673456035.021279) can0 0B310080#003F
(1673456036.077293) can0 0A310080#002D
(1673456036.079282) can0 0B310080#002D
(1673456036.903068) can0 0A310080#0020
(1673456036.904270) can0 0B310080#0020
(1673456037.695291) can0 0A310080#0013
(1673456037.697271) can0 0B310080#0012
(1673456038.665291) can0 0A310080#0021
(1673456038.667258) can0 0B310080#0020
(1673456039.267276) can0 0A310080#0031
(1673456039.269257) can0 0B310080#0031
(1673456041.883292) can0 0A310080#0014
(1673456041.885284) can0 0B310080#0014
(1673456043.113285) can0 0A310080#0064
(1673456043.114272) can0 0B310080#0064
(1673456043.944292) can0 0A310080#0014
(1673456043.946282) can0 0B310080#0014
(1673456044.867292) can0 0A310080#0031
(1673456044.869283) can0 0B310080#0031
(1673456046.206283) can0 0A310080#0064
(1673456046.207275) can0 0B310080#0064
(1673456047.067296) can0 0A310080#0014
(1673456047.069285) can0 0B310080#0014
(1673456047.958292) can0 0A310080#0000
(1673456047.960286) can0 0B310080#0000
(1673456052.720293) can0 0A310080#0014
(1673456052.722260) can0 0B310080#0014
(1673456057.632296) can0 0A20FF00#
(1673456057.634274) can0 0A41FF00#
(1673456057.634276) can0 0A53FF00#
(1673456057.634278) can0 0A43FF00#
(1673456057.634279) can0 0B530100#0B005D000101AC
(1673456057.634285) can0 0B530200#0B005C000101AC
(1673456057.634286) can0 0B530300#0B0062000101AC
(1673456057.635273) can0 0B530400#0B0064000101AC
(1673456057.635279) can0 0A10FF00#
(1673456057.636273) can0 0A31FF00#
(1673456057.636278) can0 0B310000#0F00FF000101AC
(1673456057.639273) can0 0A310080#
(1673456057.639278) can0 0A310090#
(1673456057.640264) can0 0B310080#0014
(1673456057.640271) can0 0A310080#
(1673456057.641268) can0 0A310090#
(1673456057.641279) can0 0B310090#FFFFFFFF
(1673456057.641281) can0 0B310080#0014
(1673456057.642281) can0 0B310090#FFFFFFFF
(1673456077.729295) can0 0A20FF00#
(1673456077.729309) can0 0A41FF00#
(1673456077.730282) can0 0A53FF00#
(1673456077.730289) can0 0A43FF00#
(1673456077.731282) can0 0B530100#0B005D000101AC
(1673456077.731288) can0 0A10FF00#
(1673456077.732281) can0 0B530200#0B005C000101AC
(1673456077.732288) can0 0A31FF00#
(1673456077.732290) can0 0B530300#0B0062000101AC
(1673456077.733281) can0 0B310000#0F00FF000101AC
(1673456077.733288) can0 0B530400#0B0064000101AC
(1673456077.735281) can0 0A310080#
(1673456077.735288) can0 0A310090#
(1673456077.736280) can0 0A310080#
(1673456077.736287) can0 0B310080#0014
(1673456077.737278) can0 0A310090#
(1673456077.737285) can0 0B310090#FFFFFFFF
(1673456077.738282) can0 0B310080#0014
(1673456077.738288) can0 0B310090#FFFFFFFF
(1673456108.233284) can0 0A310080#0022
(1673456108.234271) can0 0B310080#0022
(1673456113.558291) can0 0A310080#003B
(1673456113.560273) can0 0B310080#003A
(1673456117.645302) can0 0A20FF00#
(1673456117.645316) can0 0A41FF00#
(1673456117.646274) can0 0A53FF00#
(1673456117.646282) can0 0A43FF00#
(1673456117.646283) can0 0B530100#0B005D000101AC
(1673456117.647285) can0 0B530200#0B005C000101AC
(1673456117.647292) can0 0B530300#0B0062000101AC
(1673456117.648288) can0 0B530400#0B0064000101AC
(1673456117.648295) can0 0A10FF00#
(1673456117.649289) can0 0A31FF00#
(1673456117.649296) can0 0B310000#0F00FF000101AC
(1673456117.652288) can0 0A310080#
(1673456117.652295) can0 0A310090#
(1673456117.653287) can0 0B310080#003A
(1673456117.653294) can0 0B310090#FFFFFFFF
(1673456117.654295) can0 0A310080#
(1673456117.654302) can0 0A310090#
(1673456117.655055) can0 0B310080#003A
(1673456117.655286) can0 0B310090#FFFFFFFF
(1673456123.091308) can0 0A310080#0027
(1673456123.093299) can0 0B310080#0026
(1673456127.695289) can0 0A310080#0014
(1673456127.697289) can0 0B310080#0014
(1673456128.374305) can0 0A310080#0064
(1673456128.376281) can0 0B310080#0064
(1673456129.762311) can0 0A310080#0000
(1673456129.764295) can0 0B310080#0000
(1673456130.378286) can0 0A310080#0023
(1673456130.380293) can0 0B310080#0022
(1673456130.858311) can0 0A310080#003D
(1673456130.860298) can0 0B310080#003D
(1673456131.960309) can0 0A310080#0056
(1673456131.962290) can0 0B310080#0055
(1673456132.825311) can0 0A310080#0028
(1673456132.827301) can0 0B310080#0028
(1673456135.439300) can0 0A310080#0000
(1673456135.440290) can0 0B310080#0000
(1673456135.917311) can0 0A310080#0014
(1673456135.919303) can0 0B310080#0014
(1673456136.560295) can0 0A310080#0064
(1673456136.561276) can0 0B310080#0064
(1673456137.737309) can0 0A20FF00#
(1673456137.739301) can0 0A41FF00#
(1673456137.739303) can0 0A53FF00#
(1673456137.739305) can0 0A43FF00#
(1673456137.739307) can0 0B530100#0B005D000101AC
(1673456137.739312) can0 0B530200#0B005C000101AC
(1673456137.739314) can0 0B530300#0B0062000101AC
(1673456137.740291) can0 0A10FF00#
(1673456137.740296) can0 0B530400#0B0064000101AC
(1673456137.740298) can0 0A31FF00#
(1673456137.741289) can0 0B310000#0F00FF000101AC
(1673456137.743292) can0 0A310080#
(1673456137.743297) can0 0A310080#
(1673456137.744289) can0 0A310090#
(1673456137.744295) can0 0A310090#
(1673456137.744296) can0 0B310080#0064
(1673456137.745291) can0 0B310080#0064
(1673456137.745297) can0 0B310090#FFFFFFFF
(1673456137.746289) can0 0B310090#FFFFFFFF
(1673456140.121311) can0 0A310080#0000
(1673456140.123303) can0 0B310080#0000
