(1673459509.349211) can0 0B200081#015001
(1673459509.349225) can0 0B200081#001101
(1673459509.350199) can0 0B200080#013501
(1673459509.350205) can0 0B200080#004801
(1673459509.351199) can0 0B200082#10
(1673459509.351205) can0 0B200087#0200
(1673459510.348218) can0 0B200081#015001
(1673459510.349215) can0 0B200081#001101
(1673459510.349224) can0 0B200080#013501
(1673459510.350215) can0 0B200080#004A01
(1673459510.350223) can0 0B200082#10
(1673459510.351219) can0 0B200087#0200
(1673459511.348220) can0 0B200081#015001
(1673459511.348230) can0 0B200081#001101
(1673459511.349216) can0 0B200080#013501
(1673459511.349223) can0 0B200080#004501
(1673459511.350214) can0 0B200082#10
(1673459511.350220) can0 0B200087#0200
(1673459512.347220) can0 0B200081#015001
(1673459512.347228) can0 0B200081#001101
(1673459512.348216) can0 0B200080#013301
(1673459512.348223) can0 0B200080#004801
(1673459512.349216) can0 0B200082#10
(1673459512.349222) can0 0B200087#0200
(1673459513.347234) can0 0B200081#015001
(1673459513.349222) can0 0B200081#001101
(1673459513.349225) can0 0B200080#013701
(1673459513.349227) can0 0B200080#004601
(1673459513.349228) can0 0B200082#10
(1673459513.349233) can0 0B200087#0200
(1673459514.347212) can0 0B200081#015001
(1673459514.349212) can0 0B200081#001101
(1673459514.349214) can0 0B200080#013501
(1673459514.349216) can0 0B200080#004701
(1673459514.349218) can0 0B200082#10
(1673459514.349219) can0 0B200087#0200
(1673459515.346231) can0 0B200081#015001
(1673459515.348213) can0 0B200081#001101
(1673459515.348215) can0 0B200080#013601
(1673459515.348217) can0 0B200080#004901
(1673459515.348219) can0 0B200082#10
(1673459515.348226) can0 0B200087#0200
(1673459516.345234) can0 0B200081#015001
(1673459516.347217) can0 0B200081#001101
(1673459516.347219) can0 0B200080#013601
(1673459516.347222) can0 0B200080#004801
(1673459516.347229) can0 0B200082#10
(1673459516.347231) can0 0B200087#0200
(1673459517.345233) can0 0B200081#015001
(1673459517.347226) can0 0B200081#001101
(1673459517.347229) can0 0B200080#013601
(1673459517.347231) can0 0B200080#004A01
(1673459517.347233) can0 0B200082#10
(1673459517.347235) can0 0B200087#0200
(1673459518.344234) can0 0B200081#015001
(1673459518.346225) can0 0B200081#001101
(1673459518.346226) can0 0B200080#013501
(1673459518.346228) can0 0B200080#004801
(1673459518.346230) can0 0B200082#10
(1673459518.346236) can0 0B200087#0200
(1673459519.344234) can0 0B200081#015001
(1673459519.346211) can0 0B200081#001101
(1673459519.346213) can0 0B200080#013501
(1673459519.346215) can0 0B200080#004701
(1673459519.346217) can0 0B200082#10
(1673459519.346218) can0 0B200087#0200
(1673459520.343233) can0 0B200081#015001
(1673459520.345227) can0 0B200081#001101
(1673459520.345229) can0 0B200080#013501
(1673459520.345231) can0 0B200080#004701
(1673459520.345233) can0 0B200082#10
(1673459520.345235) can0 0B200087#0200
(1673459521.342232) can0 0B200081#015001
(1673459521.344225) can0 0B200081#001101
(1673459521.344227) can0 0B200080#013601
(1673459521.344229) can0 0B200080#004801
(1673459521.344231) can0 0B200082#10
(1673459521.344237) can0 0B200087#0200
(1673459522.342228) can0 0B200081#015001
(1673459522.344205) can0 0B200081#001101
(1673459522.344207) can0 0B200080#013601
(1673459522.344209) can0 0B200080#004601
(1673459522.344212) can0 0B200082#10
(1673459522.344214) can0 0B200087#0200
(1673459523.341234) can0 0B200081#015001
(1673459523.343220) can0 0B200081#001101
(1673459523.343223) can0 0B200080#013501
(1673459523.343225) can0 0B200080#004701
(1673459523.343227) can0 0B200082#10
(1673459523.343236) can0 0B200087#0200
(1673459523.577238) can0 0A20FF00#
(1673459523.579226) can0 0A41FF00#
(1673459523.579228) can0 0B200000#FF00FF000101AC
(1673459523.579230) can0 0A53FF00#
(1673459523.579231) can0 0B020000#FF00FF000101AC
(1673459523.579237) can0 0A43FF00#
(1673459523.579238) can0 0B020000#FF00FF000101AC
(1673459523.579240) can0 0A10FF00#
(1673459523.580215) can0 0B020000#FF00FF000101AC
(1673459523.580220) can0 0A31FF00#
(1673459523.581214) can0 0B020000#FF00FF000101AC
(1673459523.581220) can0 0B020000#FF00FF000101AC
(1673459523.582212) can0 0B310000#0D0106000101AC
(1673459523.582217) can0 0B530000#0B006B000101AC
(1673459523.583213) can0 0A310080#
(1673459523.583219) can0 0B530200#0B0061000101AC
(1673459523.583220) can0 0A310090#
(1673459523.584217) can0 0B310080#0064
(1673459523.584222) can0 0B530000#0B006C000101AC
(1673459523.585214) can0 0B310090#FFFFFFFF
(1673459523.585219) can0 0B530000#0B006D000101AC
(1673459523.587214) can0 0A310080#
(1673459523.587219) can0 0A310090#
(1673459523.588213) can0 0B310080#0064
(1673459523.588218) can0 0B310090#FFFFFFFF
(1673459524.340236) can0 0B200081#015001
(1673459524.342226) can0 0B200081#001101
(1673459524.342228) can0 0B200080#013901
(1673459524.342230) can0 0B200080#004701
(1673459524.342236) can0 0B200082#10
(1673459524.342238) can0 0B200087#0200
(1673459525.340235) can0 0B200081#015001
(1673459525.342214) can0 0B200081#001101
(1673459525.342216) can0 0B200080#013501
(1673459525.342218) can0 0B200080#004801
(1673459525.342220) can0 0B200082#10
(1673459525.342222) can0 0B200087#0200
(1673459526.339236) can0 0B200081#015001
(1673459526.341229) can0 0B200081#001101
(1673459526.341231) can0 0B200080#013301
(1673459526.341233) can0 0B200080#004801
(1673459526.341235) can0 0B200082#10
(1673459526.341242) can0 0B200087#0200
(1673459526.649236) can0 0A200081#015B01
(1673459527.339235) can0 0B200081#015B01
(1673459527.341227) can0 0B200081#001101
(1673459527.341229) can0 0B200080#013701
(1673459527.341231) can0 0B200080#004601
(1673459527.341233) can0 0B200082#10
(1673459527.341235) can0 0B200087#0200
(1673459528.338235) can0 0B200081#015B01
(1673459528.340216) can0 0B200081#001101
(1673459528.340218) can0 0B200080#013601
(1673459528.340221) can0 0B200080#004701
(1673459528.340223) can0 0B200082#10
(1673459528.340225) can0 0B200087#0200
(1673459529.337234) can0 0B200081#015B01
(1673459529.339227) can0 0B200081#001101
(1673459529.339229) can0 0B200080#013501
(1673459529.339231) can0 0B200080#004701
(1673459529.339238) can0 0B200082#10
(1673459529.339240) can0 0B200087#0200
(1673459529.487231) can0 0A20FF00#
(1673459529.487244) can0 0A41FF00#
(1673459529.488204) can0 0B200000#FF00FF000101AC
(1673459529.488212) can0 0A53FF00#
(1673459529.489204) can0 0B020000#FF00FF000101AC
(1673459529.489212) can0 0A43FF00#
(1673459529.490204) can0 0B020000#FF00FF000101AC
(1673459529.490211) can0 0A10FF00#
(1673459529.491204) can0 0B020000#FF00FF000101AC
(1673459529.491211) can0 0A31FF00#
(1673459529.492203) can0 0B020000#FF00FF000101AC
(1673459529.492211) can0 0B020000#FF00FF000101AC
(1673459529.493203) can0 0B310000#0D0106000101AC
(1673459529.493210) can0 0B530000#0B006B000101AC
(1673459529.493212) can0 0A310080#
(1673459529.494203) can0 0B530200#0B0061000101AC
(1673459529.494209) can0 0A310090#
(1673459529.495203) can0 0B310080#0064
(1673459529.495210) can0 0B530000#0B006C000101AC
(1673459529.496202) can0 0B310090#FFFFFFFF
(1673459529.501204) can0 0B530000#0B006D000101AC
(1673459530.336230) can0 0B200081#015B01
(1673459530.336242) can0 0B200081#001101
(1673459530.337220) can0 0B200080#013501
(1673459530.337226) can0 0B200080#004801
(1673459530.338215) can0 0B200082#10
(1673459530.338222) can0 0B200087#0200
(1673459530.441231) can0 0A200081#015201
(1673459531.335208) can0 0B200081#015201
(1673459531.336204) can0 0B200081#001101
(1673459531.336212) can0 0B200080#013601
(1673459531.337205) can0 0B200080#004801
(1673459531.337212) can0 0B200082#10
(1673459531.338203) can0 0B200087#0200
(1673459532.335223) can0 0B200081#015201
(1673459532.335232) can0 0B200081#001101
(1673459532.336220) can0 0B200080#013601
(1673459532.336227) can0 0B200080#004801
(1673459532.337218) can0 0B200082#10
(1673459532.337225) can0 0B200087#0200
(1673459533.334223) can0 0B200081#015201
(1673459533.334231) can0 0B200081#001101
(1673459533.335220) can0 0B200080#013601
(1673459533.335226) can0 0B200080#004801
(1673459533.336220) can0 0B200082#10
(1673459533.336226) can0 0B200087#0200
(1673459534.333218) can0 0B200081#015201
(1673459534.334217) can0 0B200081#001101
(1673459534.334222) can0 0B200080#013501
(1673459534.335217) can0 0B200080#004701
(1673459534.335223) can0 0B200082#10
(1673459534.336215) can0 0B200087#0200
(1673459535.334238) can0 0B200081#015201
(1673459535.336214) can0 0B200081#001101
(1673459535.336216) can0 0B200080#013501
(1673459535.336217) can0 0B200080#004801
(1673459535.336219) can0 0B200082#10
(1673459535.336221) can0 0B200087#0200
(1673459536.333236) can0 0B200081#015201
(1673459536.335229) can0 0B200081#001101
(1673459536.335231) can0 0B200080#013601
(1673459536.335233) can0 0B200080#004701
(1673459536.335235) can0 0B200082#10
(1673459536.335241) can0 0B200087#0200
(1673459537.332236) can0 0B200081#015201
(1673459537.334216) can0 0B200081#001101
(1673459537.334218) can0 0B200080#013601
(1673459537.334221) can0 0B200080#004701
(1673459537.334229) can0 0B200082#10
(1673459537.334231) can0 0B200087#0200
(1673459537.437232) can0 0A200081#014001
(1673459538.332239) can0 0B200081#014001
(1673459538.334225) can0 0B200081#001101
(1673459538.334227) can0 0B200080#013601
(1673459538.334230) can0 0B200080#004801
(1673459538.334232) can0 0B200082#10
(1673459538.334234) can0 0B200087#0200
(1673459539.206242) can0 0A200081#015B01
(1673459539.330218) can0 0B200081#014001
(1673459539.331218) can0 0B200081#001101
(1673459539.331224) can0 0B200080#013601
(1673459539.332216) can0 0B200080#004901
(1673459539.332221) can0 0B200082#10
(1673459539.333215) can0 0B200087#0200
(1673459540.023225) can0 0A200081#015B01
(1673459540.331238) can0 0B200081#015B01
(1673459540.333229) can0 0B200081#001101
(1673459540.333230) can0 0B200080#013801
(1673459540.333232) can0 0B200080#004801
(1673459540.333234) can0 0B200082#10
(1673459540.333236) can0 0B200087#0200
(1673459541.330239) can0 0B200081#015B01
(1673459541.332228) can0 0B200081#001101
(1673459541.332230) can0 0B200080#013701
(1673459541.332232) can0 0B200080#004801
(1673459541.332234) can0 0B200082#10
(1673459541.332236) can0 0B200087#0200
(1673459542.329240) can0 0B200081#015B01
(1673459542.331229) can0 0B200081#001101
(1673459542.331231) can0 0B200080#013601
(1673459542.331233) can0 0B200080#004801
(1673459542.331236) can0 0B200082#10
(1673459542.331241) can0 0B200087#0200
(1673459543.329220) can0 0B200081#015B01
(1673459543.331219) can0 0B200081#001101
(1673459543.331221) can0 0B200080#013701
(1673459543.331224) can0 0B200080#004801
(1673459543.331226) can0 0B200082#10
(1673459543.331228) can0 0B200087#0200
(1673459543.735239) can0 0A200081#016D01
(1673459544.328239) can0 0B200081#016D01
(1673459544.330231) can0 0B200081#001101
(1673459544.330233) can0 0B200080#013701
(1673459544.330235) can0 0B200080#004801
(1673459544.330238) can0 0B200082#10
(1673459544.330244) can0 0B200087#0200
(1673459545.297242) can0 0A200081#012501
(1673459545.327220) can0 0B200081#016D01
(1673459545.327226) can0 0B200081#001101
(1673459545.328219) can0 0B200080#013601
(1673459545.328225) can0 0B200080#004901
(1673459545.329218) can0 0B200082#10
(1673459545.329223) can0 0B200087#0200
(1673459546.107238) can0 0A200081#011301
(1673459546.326239) can0 0B200081#012501
(1673459546.326255) can0 0B200081#001101
(1673459546.327227) can0 0B200080#013601
(1673459546.327236) can0 0B200080#004801
(1673459546.328225) can0 0B200082#10
(1673459546.328234) can0 0B200087#0200
(1673459547.266237) can0 0A200081#010201
(1673459547.325223) can0 0B200081#011301
(1673459547.326222) can0 0B200081#001101
(1673459547.326229) can0 0B200080#013601
(1673459547.327223) can0 0B200080#004901
(1673459547.327230) can0 0B200082#10
(1673459547.328219) can0 0B200087#0200
(1673459548.326232) can0 0B200081#010201
(1673459548.328219) can0 0B200081#001101
(1673459548.328221) can0 0B200080#013601
(1673459548.328223) can0 0B200080#004701
(1673459548.328225) can0 0B200082#10
(1673459548.328227) can0 0B200087#0200
(1673459548.650238) can0 0A200081#014A01
(1673459549.325241) can0 0B200081#014A01
(1673459549.327231) can0 0B200081#001101
(1673459549.327234) can0 0B200080#013701
(1673459549.327235) can0 0B200080#004701
(1673459549.327237) can0 0B200082#10
(1673459549.327239) can0 0B200087#0200
(1673459550.285234) can0 0A200081#016301
(1673459550.323219) can0 0B200081#014A01
(1673459550.324220) can0 0B200081#001101
(1673459550.324226) can0 0B200080#013601
(1673459550.325220) can0 0B200080#004801
(1673459550.325226) can0 0B200082#10
(1673459550.326220) can0 0B200087#0200
(1673459551.323242) can0 0B200081#016301
(1673459551.323258) can0 0B200081#001101
(1673459551.324228) can0 0B200080#013601
(1673459551.324237) can0 0B200080#004901
(1673459551.325228) can0 0B200082#10
(1673459551.325236) can0 0B200087#0200
(1673459552.322230) can0 0B200081#016301
(1673459552.323220) can0 0B200081#001101
(1673459552.323226) can0 0B200080#013401
(1673459552.324220) can0 0B200080#004901
(1673459552.324226) can0 0B200082#10
(1673459552.325221) can0 0B200087#0200
(1673459553.322230) can0 0B200081#016301
(1673459553.322239) can0 0B200081#001101
(1673459553.323230) can0 0B200080#013501
(1673459553.323235) can0 0B200080#004901
(1673459553.324218) can0 0B200082#10
(1673459553.324223) can0 0B200087#0200
(1673459554.321236) can0 0B200081#016301
(1673459554.321247) can0 0B200081#001101
(1673459554.322221) can0 0B200080#013A01
(1673459554.322228) can0 0B200080#004901
(1673459554.323224) can0 0B200082#10
(1673459554.323230) can0 0B200087#0200
(1673459555.320223) can0 0B200081#016301
(1673459555.321222) can0 0B200081#001101
(1673459555.321227) can0 0B200080#013601
(1673459555.322221) can0 0B200080#004901
(1673459555.322226) can0 0B200082#10
(1673459555.323219) can0 0B200087#0200
(1673459556.321241) can0 0B200081#016301
(1673459556.323223) can0 0B200081#001101
(1673459556.323225) can0 0B200080#013501
(1673459556.323227) can0 0B200080#004701
(1673459556.323229) can0 0B200082#10
(1673459556.323230) can0 0B200087#0200
(1673459557.320241) can0 0B200081#016301
(1673459557.322235) can0 0B200081#001101
(1673459557.322237) can0 0B200080#013601
(1673459557.322239) can0 0B200080#004701
(1673459557.322241) can0 0B200082#10
(1673459557.322242) can0 0B200087#0200
(1673459558.319224) can0 0B200081#016301
(1673459558.321220) can0 0B200081#001101
(1673459558.321221) can0 0B200080#013701
(1673459558.321223) can0 0B200080#004801
(1673459558.321230) can0 0B200082#10
(1673459558.321231) can0 0B200087#0200
(1673459559.319242) can0 0B200081#016301
(1673459559.321234) can0 0B200081#001101
(1673459559.321236) can0 0B200080#013701
(1673459559.321238) can0 0B200080#004801
(1673459559.321240) can0 0B200082#10
(1673459559.321242) can0 0B200087#0200
(1673459560.318241) can0 0B200081#016301
(1673459560.320233) can0 0B200081#001101
(1673459560.320235) can0 0B200080#013701
(1673459560.320237) can0 0B200080#004801
(1673459560.320239) can0 0B200082#10
(1673459560.320245) can0 0B200087#0200
(1673459561.317243) can0 0B200081#016301
(1673459561.319222) can0 0B200081#001101
(1673459561.319224) can0 0B200080#013801
(1673459561.319226) can0 0B200080#004901
(1673459561.319233) can0 0B200082#10
(1673459561.319234) can0 0B200087#0200
(1673459562.317243) can0 0B200081#016301
(1673459562.319233) can0 0B200081#001101
(1673459562.319235) can0 0B200080#013801
(1673459562.319236) can0 0B200080#004701
(1673459562.319238) can0 0B200082#10
(1673459562.319240) can0 0B200087#0200
(1673459563.316241) can0 0B200081#016301
(1673459563.318234) can0 0B200081#001101
(1673459563.318236) can0 0B200080#013701
(1673459563.318238) can0 0B200080#004C01
(1673459563.318240) can0 0B200082#10
(1673459563.318247) can0 0B200087#0200
(1673459564.316249) can0 0B200081#016301
(1673459564.318225) can0 0B200081#001101
(1673459564.318228) can0 0B200080#013801
(1673459564.318229) can0 0B200080#004801
(1673459564.318231) can0 0B200082#10
(1673459564.318233) can0 0B200087#0200
(1673459565.315244) can0 0B200081#016301
(1673459565.317235) can0 0B200081#001101
(1673459565.317238) can0 0B200080#013701
(1673459565.317240) can0 0B200080#004801
(1673459565.317242) can0 0B200082#10
(1673459565.317248) can0 0B200087#0200
(1673459566.314244) can0 0B200081#016301
(1673459566.316221) can0 0B200081#001101
(1673459566.316222) can0 0B200080#013801
(1673459566.316224) can0 0B200080#004901
(1673459566.316229) can0 0B200082#10
(1673459566.316231) can0 0B200087#0200
(1673459567.314245) can0 0B200081#016301
(1673459567.316235) can0 0B200081#001101
(1673459567.316238) can0 0B200080#013601
(1673459567.316240) can0 0B200080#004701
(1673459567.316242) can0 0B200082#10
(1673459567.316244) can0 0B200087#0200
(1673459568.312237) can0 0B200081#016301
(1673459568.313227) can0 0B200081#001101
(1673459568.313234) can0 0B200080#013901
(1673459568.314224) can0 0B200080#004701
(1673459568.314231) can0 0B200082#10
(1673459568.315222) can0 0B200087#0200
(1673459569.312237) can0 0B200081#016301
(1673459569.312249) can0 0B200081#001101
(1673459569.313224) can0 0B200080#013701
(1673459569.313229) can0 0B200080#004901
(1673459569.314223) can0 0B200082#10
(1673459569.314228) can0 0B200087#0200
(1673459570.311241) can0 0B200081#016301
(1673459570.311254) can0 0B200081#001101
(1673459570.312227) can0 0B200080#013701
(1673459570.312233) can0 0B200080#004701
(1673459570.313226) can0 0B200082#10
(1673459570.313233) can0 0B200087#0200
(1673459571.310235) can0 0B200081#016301
(1673459571.311226) can0 0B200081#001101
(1673459571.311233) can0 0B200080#013501
(1673459571.312225) can0 0B200080#004701
(1673459571.312233) can0 0B200082#10
(1673459571.313225) can0 0B200087#0200
(1673459572.310234) can0 0B200081#016301
(1673459572.310247) can0 0B200081#001101
(1673459572.311222) can0 0B200080#013701
(1673459572.311228) can0 0B200080#004901
(1673459572.312221) can0 0B200082#10
(1673459572.312227) can0 0B200087#0200
(1673459573.309251) can0 0B200081#016301
(1673459573.309267) can0 0B200081#001101
(1673459573.310219) can0 0B200080#013601
(1673459573.310227) can0 0B200080#004801
(1673459573.311230) can0 0B200082#10
(1673459573.311240) can0 0B200087#0200
(1673459574.309228) can0 0B200081#016301
(1673459574.309234) can0 0B200081#001101
(1673459574.310224) can0 0B200080#013701
(1673459574.310230) can0 0B200080#004A01
(1673459574.311210) can0 0B200082#10
(1673459574.311215) can0 0B200087#0200
(1673459575.308228) can0 0B200081#016301
(1673459575.308235) can0 0B200081#001101
(1673459575.309224) can0 0B200080#013601
(1673459575.309229) can0 0B200080#004801
(1673459575.310224) can0 0B200082#10
(1673459575.310229) can0 0B200087#0200
(1673459576.307230) can0 0B200081#016301
(1673459576.308227) can0 0B200081#001101
(1673459576.308234) can0 0B200080#013801
(1673459576.309228) can0 0B200080#004701
(1673459576.309235) can0 0B200082#10
(1673459576.310226) can0 0B200087#0200
(1673459577.308247) can0 0B200081#016301
(1673459577.310226) can0 0B200081#001101
(1673459577.310228) can0 0B200080#013701
(1673459577.310230) can0 0B200080#004A01
(1673459577.310232) can0 0B200082#10
(1673459577.310233) can0 0B200087#0200
(1673459578.307247) can0 0B200081#016301
(1673459578.309237) can0 0B200081#001101
(1673459578.309240) can0 0B200080#013801
(1673459578.309242) can0 0B200080#004A01
(1673459578.309244) can0 0B200082#10
(1673459578.309246) can0 0B200087#0200
(1673459579.306245) can0 0B200081#016301
(1673459579.308237) can0 0B200081#001101
(1673459579.308239) can0 0B200080#013901
(1673459579.308241) can0 0B200080#004901
(1673459579.308248) can0 0B200082#10
(1673459579.308250) can0 0B200087#0200
(1673459580.306244) can0 0B200081#016301
(1673459580.308236) can0 0B200081#001101
(1673459580.308238) can0 0B200080#013A01
(1673459580.308240) can0 0B200080#004901
(1673459580.308242) can0 0B200082#10
(1673459580.308243) can0 0B200087#0200
(1673459581.305246) can0 0B200081#016301
(1673459581.307238) can0 0B200081#001101
(1673459581.307241) can0 0B200080#013701
(1673459581.307242) can0 0B200080#004701
(1673459581.307244) can0 0B200082#10
(1673459581.307251) can0 0B200087#0200
(1673459582.304246) can0 0B200081#016301
(1673459582.306234) can0 0B200081#001101
(1673459582.306237) can0 0B200080#013701
(1673459582.306239) can0 0B200080#004901
(1673459582.306246) can0 0B200082#10
(1673459582.306248) can0 0B200087#0200
(1673459583.304248) can0 0B200081#016301
(1673459583.306238) can0 0B200081#001101
(1673459583.306241) can0 0B200080#013801
(1673459583.306243) can0 0B200080#004901
(1673459583.306245) can0 0B200082#10
(1673459583.306247) can0 0B200087#0200
(1673459583.582247) can0 0A20FF00#
(1673459583.584226) can0 0A41FF00#
(1673459583.584228) can0 0B200000#FF00FF000101AC
(1673459583.584230) can0 0A53FF00#
(1673459583.584232) can0 0B020000#FF00FF000101AC
(1673459583.584238) can0 0B020000#FF00FF000101AC
(1673459583.584241) can0 0A43FF00#
(1673459583.585223) can0 0A10FF00#
(1673459583.585231) can0 0B020000#FF00FF000101AC
(1673459583.586229) can0 0A31FF00#
(1673459583.586235) can0 0B020000#FF00FF000101AC
(1673459583.587229) can0 0B020000#FF00FF000101AC
(1673459583.587236) can0 0B310000#0D0106000101AC
(1673459583.588228) can0 0B530000#0B006D000101AC
(1673459583.588235) can0 0A310080#
(1673459583.589228) can0 0B530000#0B006B000101AC
(1673459583.589234) can0 0A310080#
(1673459583.589236) can0 0A310090#
(1673459583.590228) can0 0A310090#
(1673459583.590235) can0 0B310080#0064
(1673459583.590237) can0 0B310080#0064
(1673459583.591227) can0 0B530200#0B0061000101AC
(1673459583.591234) can0 0B310090#FFFFFFFF
(1673459583.592225) can0 0B310090#FFFFFFFF
(1673459583.597230) can0 0B530000#0B006C000101AC
(1673459584.303155) can0 0B200081#016301
(1673459584.304232) can0 0B200081#001101
(1673459584.304236) can0 0B200080#013701
(1673459584.304238) can0 0B200080#004901
(1673459584.304240) can0 0B200082#10
(1673459584.304249) can0 0B200087#0200
(1673459585.303083) can0 0B200081#016301
(1673459585.304234) can0 0B200081#001101
(1673459585.304237) can0 0B200080#013801
(1673459585.304239) can0 0B200080#004A01
(1673459585.304241) can0 0B200082#10
(1673459585.304243) can0 0B200087#0200
(1673459586.302249) can0 0B200081#016301
(1673459586.304225) can0 0B200081#001101
(1673459586.304227) can0 0B200080#013901
(1673459586.304229) can0 0B200080#004701
(1673459586.304231) can0 0B200082#10
(1673459586.304236) can0 0B200087#0200
(1673459587.301250) can0 0B200081#016301
(1673459587.303091) can0 0B200081#001101
(1673459587.303093) can0 0B200080#013A01
(1673459587.303095) can0 0B200080#004901
(1673459587.303102) can0 0B200082#10
(1673459587.303103) can0 0B200087#0200
(1673459588.301250) can0 0B200081#016301
(1673459588.303080) can0 0B200081#001101
(1673459588.303082) can0 0B200080#013801
(1673459588.303084) can0 0B200080#004701
(1673459588.303086) can0 0B200082#10
(1673459588.303088) can0 0B200087#0200
(1673459589.299251) can0 0B200081#016301
(1673459589.300233) can0 0B200081#001101
(1673459589.300242) can0 0B200080#013B01
(1673459589.301231) can0 0B200080#004901
(1673459589.301240) can0 0B200082#10
(1673459589.302231) can0 0B200087#0200
(1673459589.492252) can0 0A20FF00#
(1673459589.492270) can0 0A41FF00#
(1673459589.493235) can0 0B200000#FF00FF000101AC
(1673459589.493244) can0 0A53FF00#
(1673459589.494233) can0 0B020000#FF00FF000101AC
(1673459589.494242) can0 0A43FF00#
(1673459589.495233) can0 0B020000#FF00FF000101AC
(1673459589.495242) can0 0A10FF00#
(1673459589.496232) can0 0B020000#FF00FF000101AC
(1673459589.496241) can0 0A31FF00#
(1673459589.496243) can0 0B020000#FF00FF000101AC
(1673459589.497233) can0 0B020000#FF00FF000101AC
(1673459589.497241) can0 0B310000#0D0106000101AC
(1673459589.498232) can0 0A310080#
(1673459589.499233) can0 0A310090#
(1673459589.499241) can0 0B310080#0064
(1673459589.500231) can0 0B310090#FFFFFFFF
(1673459589.504234) can0 0B530000#0B006C000101AC
(1673459589.505233) can0 0B530000#0B006D000101AC
(1673459589.505241) can0 0B530200#0B0061000101AC
(1673459589.511233) can0 0B530000#0B006B000101AC
(1673459590.299239) can0 0B200081#016301
(1673459590.299250) can0 0B200081#001101
(1673459590.300226) can0 0B200080#013701
(1673459590.300232) can0 0B200080#004901
(1673459590.301227) can0 0B200082#10
(1673459590.301233) can0 0B200087#0200
(1673459591.298243) can0 0B200081#016301
(1673459591.298257) can0 0B200081#001101
(1673459591.299231) can0 0B200080#013701
(1673459591.299238) can0 0B200080#004801
(1673459591.300229) can0 0B200082#10
(1673459591.300235) can0 0B200087#0200
(1673459592.297242) can0 0B200081#016301
(1673459592.298230) can0 0B200081#001101
(1673459592.298237) can0 0B200080#013601
(1673459592.299229) can0 0B200080#004901
(1673459592.299236) can0 0B200082#10
(1673459592.300229) can0 0B200087#0200
(1673459593.297246) can0 0B200081#016301
(1673459593.297261) can0 0B200081#001101
(1673459593.298232) can0 0B200080#013701
(1673459593.298238) can0 0B200080#004701
(1673459593.299231) can0 0B200082#10
(1673459593.299237) can0 0B200087#0200
(1673459594.296246) can0 0B200081#016301
(1673459594.297232) can0 0B200081#001101
(1673459594.297239) can0 0B200080#013701
(1673459594.298231) can0 0B200080#004801
(1673459594.298238) can0 0B200082#10
(1673459594.299228) can0 0B200087#0200
(1673459595.296246) can0 0B200081#016301
(1673459595.296260) can0 0B200081#001101
(1673459595.297230) can0 0B200080#013701
(1673459595.297237) can0 0B200080#004901
(1673459595.298230) can0 0B200082#10
(1673459595.298237) can0 0B200087#0200
(1673459596.295235) can0 0B200081#016301
(1673459596.295244) can0 0B200081#001101
(1673459596.296230) can0 0B200080#013701
(1673459596.296237) can0 0B200080#004801
(1673459596.297232) can0 0B200082#10
(1673459596.297238) can0 0B200087#0200
(1673459597.294237) can0 0B200081#016301
(1673459597.295234) can0 0B200081#001101
(1673459597.295242) can0 0B200080#013801
(1673459597.296235) can0 0B200080#004801
(1673459597.296243) can0 0B200082#10
(1673459597.297232) can0 0B200087#0200
(1673459598.294236) can0 0B200081#016301
(1673459598.294243) can0 0B200081#001101
(1673459598.295232) can0 0B200080#013701
(1673459598.295239) can0 0B200080#004901
(1673459598.296231) can0 0B200082#10
(1673459598.296238) can0 0B200087#0200
(1673459599.294253) can0 0B200081#016301
(1673459599.296226) can0 0B200081#001101
(1673459599.296228) can0 0B200080#013801
(1673459599.296230) can0 0B200080#004901
(1673459599.296231) can0 0B200082#10
(1673459599.296233) can0 0B200087#0200
(1673459600.293249) can0 0B200081#016301
(1673459600.295217) can0 0B200081#001101
(1673459600.295219) can0 0B200080#013701
(1673459600.295220) can0 0B200080#004901
(1673459600.295222) can0 0B200082#10
(1673459600.295228) can0 0B200087#0200
(1673459601.293241) can0 0B200081#016301
(1673459601.295229) can0 0B200081#001101
(1673459601.295231) can0 0B200080#013601
(1673459601.295233) can0 0B200080#004A01
(1673459601.295235) can0 0B200082#10
(1673459601.295237) can0 0B200087#0200
(1673459602.292250) can0 0B200081#016301
(1673459602.294236) can0 0B200081#001101
(1673459602.294239) can0 0B200080#013601
(1673459602.294241) can0 0B200080#004801
(1673459602.294243) can0 0B200082#10
(1673459602.294252) can0 0B200087#0200
(1673459603.291251) can0 0B200081#016301
(1673459603.293242) can0 0B200081#001101
(1673459603.293244) can0 0B200080#013501
(1673459603.293246) can0 0B200080#004801
(1673459603.293253) can0 0B200082#10
(1673459603.293255) can0 0B200087#0200
(1673459604.291253) can0 0B200081#016301
(1673459604.293240) can0 0B200081#001101
(1673459604.293242) can0 0B200080#013501
(1673459604.293243) can0 0B200080#004801
(1673459604.293245) can0 0B200082#10
(1673459604.293247) can0 0B200087#0200
(1673459605.290254) can0 0B200081#016301
(1673459605.292240) can0 0B200081#001101
(1673459605.292242) can0 0B200080#013801
(1673459605.292244) can0 0B200080#004A01
(1673459605.292245) can0 0B200082#10
(1673459605.292252) can0 0B200087#0200
(1673459606.290249) can0 0B200081#016301
(1673459606.292241) can0 0B200081#001101
(1673459606.292243) can0 0B200080#013701
(1673459606.292246) can0 0B200080#004901
(1673459606.292247) can0 0B200082#10
(1673459606.292249) can0 0B200087#0200
(1673459607.289252) can0 0B200081#016301
(1673459607.291242) can0 0B200081#001101
(1673459607.291243) can0 0B200080#013901
(1673459607.291245) can0 0B200080#004901
(1673459607.291247) can0 0B200082#10
(1673459607.291249) can0 0B200087#0200
(1673459608.288251) can0 0B200081#016301
(1673459608.290243) can0 0B200081#001101
(1673459608.290245) can0 0B200080#013A01
(1673459608.290247) can0 0B200080#004901
(1673459608.290254) can0 0B200082#10
(1673459608.290255) can0 0B200087#0200
(1673459609.288252) can0 0B200081#016301
(1673459609.290230) can0 0B200081#001101
(1673459609.290232) can0 0B200080#013801
(1673459609.290234) can0 0B200080#004901
(1673459609.290236) can0 0B200082#10
(1673459609.290237) can0 0B200087#0200
(1673459610.287256) can0 0B200081#016301
(1673459610.289242) can0 0B200081#001101
(1673459610.289244) can0 0B200080#013801
(1673459610.289245) can0 0B200080#004A01
(1673459610.289247) can0 0B200082#10
(1673459610.289253) can0 0B200087#0200
(1673459611.286251) can0 0B200081#016301
(1673459611.286265) can0 0B200081#001101
(1673459611.287233) can0 0B200080#013801
(1673459611.287240) can0 0B200080#004901
(1673459611.288233) can0 0B200082#10
(1673459611.288240) can0 0B200087#0200
(1673459612.285249) can0 0B200081#016301
(1673459612.285264) can0 0B200081#001101
(1673459612.286236) can0 0B200080#013701
(1673459612.286243) can0 0B200080#004901
(1673459612.287237) can0 0B200082#10
(1673459612.287243) can0 0B200087#0200
(1673459613.284251) can0 0B200081#016301
(1673459613.285239) can0 0B200081#001101
(1673459613.285248) can0 0B200080#013701
(1673459613.286237) can0 0B200080#004801
(1673459613.286245) can0 0B200082#10
(1673459613.287238) can0 0B200087#0200
(1673459614.284249) can0 0B200081#016301
(1673459614.284260) can0 0B200081#001101
(1673459614.285236) can0 0B200080#013701
(1673459614.285243) can0 0B200080#004801
(1673459614.286234) can0 0B200082#10
(1673459614.286241) can0 0B200087#0200
(1673459615.283249) can0 0B200081#016301
(1673459615.283261) can0 0B200081#001101
(1673459615.284222) can0 0B200080#013901
(1673459615.284229) can0 0B200080#004A01
(1673459615.285235) can0 0B200082#10
(1673459615.285242) can0 0B200087#0200
(1673459616.282243) can0 0B200081#016301
(1673459616.283234) can0 0B200081#001101
(1673459616.283239) can0 0B200080#013701
(1673459616.284233) can0 0B200080#004701
(1673459616.284239) can0 0B200082#10
(1673459616.285232) can0 0B200087#0200
(1673459617.282247) can0 0B200081#016301
(1673459617.282258) can0 0B200081#001101
(1673459617.283235) can0 0B200080#013701
(1673459617.283242) can0 0B200080#004901
(1673459617.284236) can0 0B200082#10
(1673459617.284243) can0 0B200087#0200
(1673459618.281239) can0 0B200081#016301
(1673459618.282236) can0 0B200081#001101
(1673459618.282243) can0 0B200080#013601
(1673459618.283235) can0 0B200080#004801
(1673459618.283242) can0 0B200082#10
(1673459618.284234) can0 0B200087#0200
(1673459619.281240) can0 0B200081#016301
(1673459619.281248) can0 0B200081#001101
(1673459619.282237) can0 0B200080#013701
(1673459619.282244) can0 0B200080#004901
(1673459619.283236) can0 0B200082#10
(1673459619.283243) can0 0B200087#0200
(1673459620.281256) can0 0B200081#016301
(1673459620.283234) can0 0B200081#001101
(1673459620.283236) can0 0B200080#013801
(1673459620.283238) can0 0B200080#004901
(1673459620.283240) can0 0B200082#10
(1673459620.283242) can0 0B200087#0200
(1673459621.280257) can0 0B200081#016301
(1673459621.282244) can0 0B200081#001101
(1673459621.282246) can0 0B200080#013801
(1673459621.282248) can0 0B200080#004901
(1673459621.282249) can0 0B200082#10
(1673459621.282254) can0 0B200087#0200
(1673459622.280257) can0 0B200081#016301
(1673459622.282247) can0 0B200081#001101
(1673459622.282249) can0 0B200080#013801
(1673459622.282251) can0 0B200080#004C01
(1673459622.282253) can0 0B200082#10
(1673459622.282255) can0 0B200087#0200
(1673459623.279257) can0 0B200081#016301
(1673459623.281246) can0 0B200081#001101
(1673459623.281248) can0 0B200080#013901
(1673459623.281250) can0 0B200080#004901
(1673459623.281252) can0 0B200082#10
(1673459623.281258) can0 0B200087#0200
(1673459624.278257) can0 0B200081#016301
(1673459624.280238) can0 0B200081#001101
(1673459624.280241) can0 0B200080#013801
(1673459624.280243) can0 0B200080#004A01
(1673459624.280250) can0 0B200082#10
(1673459624.280251) can0 0B200087#0200
(1673459625.278258) can0 0B200081#016301
(1673459625.280247) can0 0B200081#001101
(1673459625.280249) can0 0B200080#013701
(1673459625.280251) can0 0B200080#004901
(1673459625.280253) can0 0B200082#10
(1673459625.280255) can0 0B200087#0200
(1673459626.277258) can0 0B200081#016301
(1673459626.279247) can0 0B200081#001101
(1673459626.279249) can0 0B200080#013901
(1673459626.279251) can0 0B200080#004A01
(1673459626.279253) can0 0B200082#10
(1673459626.279259) can0 0B200087#0200
(1673459627.277257) can0 0B200081#016301
(1673459627.279246) can0 0B200081#001101
(1673459627.279248) can0 0B200080#013A01
(1673459627.279249) can0 0B200080#004801
(1673459627.279251) can0 0B200082#10
(1673459627.279253) can0 0B200087#0200
(1673459628.276259) can0 0B200081#016301
(1673459628.278225) can0 0B200081#001101
(1673459628.278227) can0 0B200080#013801
(1673459628.278229) can0 0B200080#004A01
(1673459628.278231) can0 0B200082#10
(1673459628.278232) can0 0B200087#0200
(1673459629.275258) can0 0B200081#016301
(1673459629.277234) can0 0B200081#001101
(1673459629.277236) can0 0B200080#013701
(1673459629.277237) can0 0B200080#004901
(1673459629.277242) can0 0B200082#10
(1673459629.277244) can0 0B200087#0200
(1673459630.275239) can0 0B200081#016301
(1673459630.277221) can0 0B200081#001101
(1673459630.277223) can0 0B200080#013601
(1673459630.277225) can0 0B200080#004A01
(1673459630.277227) can0 0B200082#10
(1673459630.277229) can0 0B200087#0200
(1673459631.274258) can0 0B200081#016301
(1673459631.276247) can0 0B200081#001101
(1673459631.276250) can0 0B200080#013601
(1673459631.276252) can0 0B200080#004901
(1673459631.276253) can0 0B200082#10
(1673459631.276260) can0 0B200087#0200
(1673459632.273258) can0 0B200081#016301
(1673459632.275247) can0 0B200081#001101
(1673459632.275249) can0 0B200080#013701
(1673459632.275251) can0 0B200080#004801
(1673459632.275257) can0 0B200082#10
(1673459632.275259) can0 0B200087#0200
(1673459633.272259) can0 0B200081#016301
(1673459633.272275) can0 0B200081#001101
(1673459633.273242) can0 0B200080#013801
(1673459633.273251) can0 0B200080#004901
(1673459633.274241) can0 0B200082#10
(1673459633.274250) can0 0B200087#0200
(1673459634.271258) can0 0B200081#016301
(1673459634.272243) can0 0B200081#001101
(1673459634.272252) can0 0B200080#013801
(1673459634.273242) can0 0B200080#004801
(1673459634.273251) can0 0B200082#10
(1673459634.274242) can0 0B200087#0200
(1673459635.271252) can0 0B200081#016301
(1673459635.271265) can0 0B200081#001101
(1673459635.272235) can0 0B200080#013801
(1673459635.272241) can0 0B200080#004A01
(1673459635.273237) can0 0B200082#10
(1673459635.273242) can0 0B200087#0200
(1673459636.270249) can0 0B200081#016301
(1673459636.270260) can0 0B200081#001101
(1673459636.271237) can0 0B200080#013701
(1673459636.271242) can0 0B200080#004901
(1673459636.272237) can0 0B200082#10
(1673459636.272243) can0 0B200087#0200
(1673459637.269250) can0 0B200081#016301
(1673459637.270237) can0 0B200081#001101
(1673459637.270243) can0 0B200080#013701
(1673459637.271238) can0 0B200080#004A01
(1673459637.271244) can0 0B200082#10
(1673459637.272236) can0 0B200087#0200
(1673459638.269248) can0 0B200081#016301
(1673459638.269258) can0 0B200081#001101
(1673459638.270237) can0 0B200080#013901
(1673459638.270243) can0 0B200080#004B01
(1673459638.271238) can0 0B200082#10
(1673459638.271243) can0 0B200087#0200
(1673459639.268247) can0 0B200081#016301
(1673459639.269236) can0 0B200081#001101
(1673459639.269242) can0 0B200080#013801
(1673459639.270236) can0 0B200080#004A01
(1673459639.270241) can0 0B200082#10
(1673459639.271234) can0 0B200087#0200
(1673459640.268245) can0 0B200081#016301
(1673459640.268253) can0 0B200081#001101
(1673459640.269240) can0 0B200080#013901
(1673459640.269246) can0 0B200080#004901
(1673459640.270240) can0 0B200082#10
(1673459640.270246) can0 0B200087#0200
(1673459641.268259) can0 0B200081#016301
(1673459641.270238) can0 0B200081#001101
(1673459641.270241) can0 0B200080#013801
(1673459641.270243) can0 0B200080#004A01
(1673459641.270245) can0 0B200082#10
(1673459641.270247) can0 0B200087#0200
(1673459642.267261) can0 0B200081#016301
(1673459642.269250) can0 0B200081#001101
(1673459642.269252) can0 0B200080#013801
(1673459642.269254) can0 0B200080#004C01
(1673459642.269256) can0 0B200082#10
(1673459642.269263) can0 0B200087#0200
(1673459643.267261) can0 0B200081#016301
(1673459643.269240) can0 0B200081#001101
(1673459643.269242) can0 0B200080#013601
(1673459643.269244) can0 0B200080#004C01
(1673459643.269246) can0 0B200082#10
(1673459643.269248) can0 0B200087#0200
(1673459643.589250) can0 0A20FF00#
(1673459643.590241) can0 0A41FF00#
(1673459643.590248) can0 0B200000#FF00FF000101AC
(1673459643.591240) can0 0A53FF00#
(1673459643.591246) can0 0B020000#FF00FF000101AC
(1673459643.592239) can0 0A43FF00#
(1673459643.592246) can0 0B020000#FF00FF000101AC
(1673459643.593237) can0 0A10FF00#
(1673459643.593244) can0 0B020000#FF00FF000101AC
(1673459643.594237) can0 0A31FF00#
(1673459643.594244) can0 0B020000#FF00FF000101AC
(1673459643.595238) can0 0B020000#FF00FF000101AC
(1673459643.595246) can0 0B310000#0D0106000101AC
(1673459643.596238) can0 0B530000#0B006B000101AC
(1673459643.597238) can0 0B530000#0B006C000101AC
(1673459643.597246) can0 0B530200#0B0061000101AC
(1673459643.598238) can0 0A310080#
(1673459643.598244) can0 0A310090#
(1673459643.599236) can0 0B530000#0B006D000101AC
(1673459643.599242) can0 0B310080#0064
(1673459643.600236) can0 0B310090#FFFFFFFF
(1673459643.600243) can0 0A310080#
(1673459643.600245) can0 0A310090#
(1673459643.601240) can0 0B310080#0064
(1673459643.601247) can0 0B310090#FFFFFFFF
(1673459644.266259) can0 0B200081#016301
(1673459644.268249) can0 0B200081#001101
(1673459644.268251) can0 0B200080#013801
(1673459644.268253) can0 0B200080#004901
(1673459644.268255) can0 0B200082#10
(1673459644.268261) can0 0B200087#0200
(1673459645.265256) can0 0B200081#016301
(1673459645.267251) can0 0B200081#001101
(1673459645.267254) can0 0B200080#013901
(1673459645.267256) can0 0B200080#004901
(1673459645.267261) can0 0B200082#10
(1673459645.267264) can0 0B200087#0200
(1673459646.265262) can0 0B200081#016301
(1673459646.267250) can0 0B200081#001101
(1673459646.267252) can0 0B200080#013801
(1673459646.267254) can0 0B200080#004901
(1673459646.267255) can0 0B200082#10
(1673459646.267258) can0 0B200087#0200
(1673459647.264262) can0 0B200081#016301
(1673459647.266250) can0 0B200081#001101
(1673459647.266252) can0 0B200080#013801
(1673459647.266254) can0 0B200080#004A01
(1673459647.266256) can0 0B200082#10
(1673459647.266262) can0 0B200087#0200
(1673459648.264260) can0 0B200081#016301
(1673459648.266239) can0 0B200081#001101
(1673459648.266241) can0 0B200080#013701
(1673459648.266243) can0 0B200080#004901
(1673459648.266245) can0 0B200082#10
(1673459648.266247) can0 0B200087#0200
(1673459649.263240) can0 0B200081#016301
(1673459649.265228) can0 0B200081#001101
(1673459649.265230) can0 0B200080#013801
(1673459649.265232) can0 0B200080#004A01
(1673459649.265234) can0 0B200082#10
(1673459649.265236) can0 0B200087#0200
(1673459649.497245) can0 0A20FF00#
(1673459649.497260) can0 0A41FF00#
(1673459649.498225) can0 0B200000#FF00FF000101AC
(1673459649.498231) can0 0A53FF00#
(1673459649.499227) can0 0B020000#FF00FF000101AC
(1673459649.499232) can0 0A43FF00#
(1673459649.500228) can0 0B020000#FF00FF000101AC
(1673459649.500235) can0 0A10FF00#
(1673459649.501227) can0 0B020000#FF00FF000101AC
(1673459649.501233) can0 0A31FF00#
(1673459649.502228) can0 0B020000#FF00FF000101AC
(1673459649.502234) can0 0B020000#FF00FF000101AC
(1673459649.503228) can0 0B310000#0D0106000101AC
(1673459649.503235) can0 0B530000#0B006B000101AC
(1673459649.504243) can0 0A310080#
(1673459649.504250) can0 0B530200#0B0061000101AC
(1673459649.505239) can0 0A310090#
(1673459649.505244) can0 0B310080#0064
(1673459649.506238) can0 0B530000#0B006C000101AC
(1673459649.506244) can0 0B310090#FFFFFFFF
(1673459649.507237) can0 0B530000#0B006D000101AC
(1673459650.262263) can0 0B200081#016301
(1673459650.264240) can0 0B200081#001101
(1673459650.264242) can0 0B200080#013601
(1673459650.264244) can0 0B200080#004A01
(1673459650.264247) can0 0B200082#10
(1673459650.264253) can0 0B200087#0200
(1673459651.262262) can0 0B200081#016301
(1673459651.264252) can0 0B200081#001101
(1673459651.264254) can0 0B200080#013C01
(1673459651.264256) can0 0B200080#004901
(1673459651.264258) can0 0B200082#10
(1673459651.264260) can0 0B200087#0200
(1673459652.261263) can0 0B200081#016301
(1673459652.263249) can0 0B200081#001101
(1673459652.263251) can0 0B200080#013801
(1673459652.263253) can0 0B200080#004901
(1673459652.263255) can0 0B200082#10
(1673459652.263260) can0 0B200087#0200
(1673459653.260264) can0 0B200081#016301
(1673459653.262240) can0 0B200081#001101
(1673459653.262243) can0 0B200080#013901
(1673459653.262244) can0 0B200080#004901
(1673459653.262251) can0 0B200082#10
(1673459653.262253) can0 0B200087#0200
(1673459654.259254) can0 0B200081#016301
(1673459654.259267) can0 0B200081#001101
(1673459654.260241) can0 0B200080#013801
(1673459654.260246) can0 0B200080#004B01
(1673459654.261239) can0 0B200082#10
(1673459654.261244) can0 0B200087#0200
(1673459655.258240) can0 0B200081#016301
(1673459655.259232) can0 0B200081#001101
(1673459655.259241) can0 0B200080#013A01
(1673459655.260230) can0 0B200080#004A01
(1673459655.260237) can0 0B200082#10
(1673459655.261228) can0 0B200087#0200
(1673459656.258257) can0 0B200081#016301
(1673459656.258272) can0 0B200081#001101
(1673459656.259242) can0 0B200080#013901
(1673459656.259249) can0 0B200080#004A01
(1673459656.260244) can0 0B200082#10
(1673459656.260250) can0 0B200087#0200
(1673459657.257256) can0 0B200081#016301
(1673459657.257270) can0 0B200081#001101
(1673459657.258242) can0 0B200080#013901
(1673459657.258249) can0 0B200080#004A01
(1673459657.259244) can0 0B200082#10
(1673459657.259250) can0 0B200087#0200
(1673459658.256255) can0 0B200081#016301
(1673459658.257243) can0 0B200081#001101
(1673459658.257250) can0 0B200080#013701
(1673459658.258243) can0 0B200080#004901
(1673459658.258249) can0 0B200082#10
(1673459658.259242) can0 0B200087#0200
(1673459659.256253) can0 0B200081#016301
(1673459659.256264) can0 0B200081#001101
(1673459659.257241) can0 0B200080#013901
(1673459659.257246) can0 0B200080#004901
(1673459659.258241) can0 0B200082#10
(1673459659.258246) can0 0B200087#0200
(1673459660.255261) can0 0B200081#016301
(1673459660.256247) can0 0B200081#001101
(1673459660.256255) can0 0B200080#013901
(1673459660.257247) can0 0B200080#004A01
(1673459660.257255) can0 0B200082#10
(1673459660.258244) can0 0B200087#0200
(1673459661.255245) can0 0B200081#016301
(1673459661.255252) can0 0B200081#001101
(1673459661.256243) can0 0B200080#013701
(1673459661.256248) can0 0B200080#004A01
(1673459661.257234) can0 0B200082#10
(1673459661.257239) can0 0B200087#0200
(1673459662.254245) can0 0B200081#016301
(1673459662.254251) can0 0B200081#001101
(1673459662.255243) can0 0B200080#013801
(1673459662.255248) can0 0B200080#004A01
(1673459662.256242) can0 0B200082#10
(1673459662.256247) can0 0B200087#0200
(1673459663.254259) can0 0B200081#016301
(1673459663.256246) can0 0B200081#001101
(1673459663.256249) can0 0B200080#013701
(1673459663.256251) can0 0B200080#004701
(1673459663.256253) can0 0B200082#10
(1673459663.256262) can0 0B200087#0200
(1673459664.254264) can0 0B200081#016301
(1673459664.256255) can0 0B200081#001101
(1673459664.256257) can0 0B200080#013801
(1673459664.256259) can0 0B200080#004A01
(1673459664.256261) can0 0B200082#10
(1673459664.256263) can0 0B200087#0200
(1673459665.253265) can0 0B200081#016301
(1673459665.255253) can0 0B200081#001101
(1673459665.255256) can0 0B200080#013801
(1673459665.255258) can0 0B200080#004A01
(1673459665.255260) can0 0B200082#10
(1673459665.255266) can0 0B200087#0200
(1673459666.252266) can0 0B200081#016301
(1673459666.254244) can0 0B200081#001101
(1673459666.254247) can0 0B200080#013801
(1673459666.254249) can0 0B200080#004A01
(1673459666.254256) can0 0B200082#10
(1673459666.254258) can0 0B200087#0200
(1673459667.252266) can0 0B200081#016301
(1673459667.254249) can0 0B200081#001101
(1673459667.254252) can0 0B200080#013701
(1673459667.254255) can0 0B200080#004C01
(1673459667.254257) can0 0B200082#10
(1673459667.254259) can0 0B200087#0200
(1673459668.251265) can0 0B200081#016301
(1673459668.253254) can0 0B200081#001101
(1673459668.253256) can0 0B200080#013601
(1673459668.253258) can0 0B200080#004B01
(1673459668.253259) can0 0B200082#10
(1673459668.253265) can0 0B200087#0200
(1673459669.251265) can0 0B200081#016301
(1673459669.253257) can0 0B200081#001101
(1673459669.253259) can0 0B200080#013701
(1673459669.253261) can0 0B200080#004901
(1673459669.253262) can0 0B200082#10
(1673459669.253264) can0 0B200087#0200
(1673459670.250265) can0 0B200081#016301
(1673459670.252246) can0 0B200081#001101
(1673459670.252248) can0 0B200080#013801
(1673459670.252250) can0 0B200080#004B01
(1673459670.252252) can0 0B200082#10
(1673459670.252254) can0 0B200087#0200
(1673459671.249266) can0 0B200081#016301
(1673459671.251254) can0 0B200081#001101
(1673459671.251256) can0 0B200080#013801
(1673459671.251258) can0 0B200080#004901
(1673459671.251259) can0 0B200082#10
(1673459671.251265) can0 0B200087#0200
(1673459672.249266) can0 0B200081#016301
(1673459672.251257) can0 0B200081#001101
(1673459672.251259) can0 0B200080#013A01
(1673459672.251261) can0 0B200080#004B01
(1673459672.251263) can0 0B200082#10
(1673459672.251265) can0 0B200087#0200
(1673459673.248266) can0 0B200081#016301
(1673459673.250256) can0 0B200081#001101
(1673459673.250258) can0 0B200080#013701
(1673459673.250260) can0 0B200080#004A01
(1673459673.250262) can0 0B200082#10
(1673459673.250270) can0 0B200087#0200
(1673459674.247260) can0 0B200081#016301
(1673459674.249257) can0 0B200081#001101
(1673459674.249259) can0 0B200080#013A01
(1673459674.249260) can0 0B200080#004A01
(1673459674.249267) can0 0B200082#10
(1673459674.249269) can0 0B200087#0200
(1673459675.247266) can0 0B200081#016301
(1673459675.249257) can0 0B200081#001101
(1673459675.249259) can0 0B200080#013801
(1673459675.249262) can0 0B200080#004901
(1673459675.249263) can0 0B200082#10
(1673459675.249265) can0 0B200087#0200
(1673459676.245260) can0 0B200081#016301
(1673459676.246245) can0 0B200081#001101
(1673459676.246250) can0 0B200080#013801
(1673459676.247243) can0 0B200080#004B01
(1673459676.247248) can0 0B200082#10
(1673459676.248244) can0 0B200087#0200
(1673459677.245260) can0 0B200081#016301
(1673459677.245272) can0 0B200081#001101
(1673459677.246246) can0 0B200080#013A01
(1673459677.246252) can0 0B200080#004C01
(1673459677.247245) can0 0B200082#10
(1673459677.247251) can0 0B200087#0200
(1673459678.244261) can0 0B200081#016301
(1673459678.244274) can0 0B200081#001101
(1673459678.245246) can0 0B200080#013901
(1673459678.245251) can0 0B200080#004A01
(1673459678.246245) can0 0B200082#10
(1673459678.246251) can0 0B200087#0200
(1673459679.243263) can0 0B200081#016301
(1673459679.244249) can0 0B200081#001101
(1673459679.244256) can0 0B200080#013901
(1673459679.245245) can0 0B200080#004901
(1673459679.245252) can0 0B200082#10
(1673459679.246245) can0 0B200087#0200
(1673459680.243261) can0 0B200081#016301
(1673459680.243275) can0 0B200081#001101
(1673459680.244247) can0 0B200080#013A01
(1673459680.244253) can0 0B200080#004901
(1673459680.245245) can0 0B200082#10
(1673459680.245251) can0 0B200087#0200
(1673459681.242262) can0 0B200081#016301
(1673459681.243246) can0 0B200081#001101
(1673459681.243252) can0 0B200080#013801
(1673459681.244245) can0 0B200080#004B01
(1673459681.244250) can0 0B200082#10
(1673459681.245244) can0 0B200087#0200
(1673459682.242263) can0 0B200081#016301
(1673459682.242275) can0 0B200081#001101
(1673459682.243247) can0 0B200080#013901
(1673459682.243252) can0 0B200080#004901
(1673459682.244246) can0 0B200082#10
(1673459682.244252) can0 0B200087#0200
(1673459683.241258) can0 0B200081#016301
(1673459683.241272) can0 0B200081#001101
(1673459683.242246) can0 0B200080#013901
(1673459683.242252) can0 0B200080#004A01
(1673459683.243237) can0 0B200082#10
(1673459683.243245) can0 0B200087#0200
(1673459684.241268) can0 0B200081#016301
(1673459684.243246) can0 0B200081#001101
(1673459684.243248) can0 0B200080#013701
(1673459684.243250) can0 0B200080#004901
(1673459684.243252) can0 0B200082#10
(1673459684.243259) can0 0B200087#0200
(1673459685.241268) can0 0B200081#016301
(1673459685.243258) can0 0B200081#001101
(1673459685.243261) can0 0B200080#013A01
(1673459685.243263) can0 0B200080#004A01
(1673459685.243265) can0 0B200082#10
(1673459685.243267) can0 0B200087#0200
(1673459686.240270) can0 0B200081#016301
(1673459686.242260) can0 0B200081#001101
(1673459686.242262) can0 0B200080#013901
(1673459686.242264) can0 0B200080#004901
(1673459686.242266) can0 0B200082#10
(1673459686.242272) can0 0B200087#0200
(1673459687.239269) can0 0B200081#016301
(1673459687.241258) can0 0B200081#001101
(1673459687.241260) can0 0B200080#013901
(1673459687.241262) can0 0B200080#004B01
(1673459687.241269) can0 0B200082#10
(1673459687.241271) can0 0B200087#0200
(1673459688.239269) can0 0B200081#016301
(1673459688.241253) can0 0B200081#001101
(1673459688.241256) can0 0B200080#013901
(1673459688.241259) can0 0B200080#004901
(1673459688.241261) can0 0B200082#10
(1673459688.241263) can0 0B200087#0200
(1673459689.238268) can0 0B200081#016301
(1673459689.240259) can0 0B200081#001101
(1673459689.240261) can0 0B200080#013901
(1673459689.240263) can0 0B200080#004B01
(1673459689.240265) can0 0B200082#10
(1673459689.240272) can0 0B200087#0200
(1673459690.238270) can0 0B200081#016301
(1673459690.240251) can0 0B200081#001101
(1673459690.240253) can0 0B200080#013A01
(1673459690.240255) can0 0B200080#004C01
(1673459690.240257) can0 0B200082#10
(1673459690.240259) can0 0B200087#0200
(1673459691.237269) can0 0B200081#016301
(1673459691.239250) can0 0B200081#001101
(1673459691.239252) can0 0B200080#013801
(1673459691.239254) can0 0B200080#004A01
(1673459691.239255) can0 0B200082#10
(1673459691.239257) can0 0B200087#0200
(1673459692.236272) can0 0B200081#016301
(1673459692.238258) can0 0B200081#001101
(1673459692.238260) can0 0B200080#013901
(1673459692.238261) can0 0B200080#004A01
(1673459692.238263) can0 0B200082#10
(1673459692.238269) can0 0B200087#0200
(1673459693.236269) can0 0B200081#016301
(1673459693.238259) can0 0B200081#001101
(1673459693.238261) can0 0B200080#013901
(1673459693.238263) can0 0B200080#004A01
(1673459693.238265) can0 0B200082#10
(1673459693.238266) can0 0B200087#0200
(1673459694.235271) can0 0B200081#016301
(1673459694.237259) can0 0B200081#001101
(1673459694.237261) can0 0B200080#013C01
(1673459694.237263) can0 0B200080#004B01
(1673459694.237265) can0 0B200082#10
(1673459694.237272) can0 0B200087#0200
(1673459695.234272) can0 0B200081#016301
(1673459695.236248) can0 0B200081#001101
(1673459695.236250) can0 0B200080#013901
(1673459695.236252) can0 0B200080#004901
(1673459695.236259) can0 0B200082#10
(1673459695.236260) can0 0B200087#0200
(1673459696.234270) can0 0B200081#016301
(1673459696.236261) can0 0B200081#001101
(1673459696.236263) can0 0B200080#013801
(1673459696.236265) can0 0B200080#004A01
(1673459696.236266) can0 0B200082#10
(1673459696.236268) can0 0B200087#0200
(1673459697.232260) can0 0B200081#016301
(1673459697.233249) can0 0B200081#001101
(1673459697.233254) can0 0B200080#013801
(1673459697.234248) can0 0B200080#004A01
(1673459697.234253) can0 0B200082#10
(1673459697.235246) can0 0B200087#0200
(1673459698.232264) can0 0B200081#016301
(1673459698.232276) can0 0B200081#001101
(1673459698.233248) can0 0B200080#013601
(1673459698.233254) can0 0B200080#004D01
(1673459698.234249) can0 0B200082#10
(1673459698.234254) can0 0B200087#0200
(1673459699.231263) can0 0B200081#016301
(1673459699.231277) can0 0B200081#001101
(1673459699.232247) can0 0B200080#013B01
(1673459699.232253) can0 0B200080#004A01
(1673459699.233248) can0 0B200082#10
(1673459699.233254) can0 0B200087#0200
(1673459700.230264) can0 0B200081#016301
(1673459700.231252) can0 0B200081#001101
(1673459700.231259) can0 0B200080#013901
(1673459700.232252) can0 0B200080#004A01
(1673459700.232259) can0 0B200082#10
(1673459700.233249) can0 0B200087#0200
(1673459701.230265) can0 0B200081#016301
(1673459701.230278) can0 0B200081#001101
(1673459701.231253) can0 0B200080#013701
(1673459701.231260) can0 0B200080#004901
(1673459701.232252) can0 0B200082#10
(1673459701.232259) can0 0B200087#0200
(1673459702.229264) can0 0B200081#016301
(1673459702.230253) can0 0B200081#001101
(1673459702.230260) can0 0B200080#013901
(1673459702.231253) can0 0B200080#004A01
(1673459702.231259) can0 0B200082#10
(1673459702.232252) can0 0B200087#0200
(1673459703.229270) can0 0B200081#016301
(1673459703.229284) can0 0B200081#001101
(1673459703.230255) can0 0B200080#013801
(1673459703.230263) can0 0B200080#004C01
(1673459703.231256) can0 0B200082#10
(1673459703.231265) can0 0B200087#0200
(1673459703.599266) can0 0A20FF00#
(1673459703.601255) can0 0A41FF00#
(1673459703.601258) can0 0B200000#FF00FF000101AC
(1673459703.601260) can0 0A53FF00#
(1673459703.601269) can0 0B020000#FF00FF000101AC
(1673459703.601271) can0 0A43FF00#
(1673459703.601273) can0 0B020000#FF00FF000101AC
(1673459703.602254) can0 0A10FF00#
(1673459703.602262) can0 0B020000#FF00FF000101AC
(1673459703.602265) can0 0A31FF00#
(1673459703.603259) can0 0B020000#FF00FF000101AC
(1673459703.603267) can0 0B020000#FF00FF000101AC
(1673459703.604257) can0 0B310000#0D0106000101AC
(1673459703.604267) can0 0B530000#0B006B000101AC
(1673459703.605257) can0 0B530200#0B0061000101AC
(1673459703.605265) can0 0B530000#0B006C000101AC
(1673459703.606256) can0 0A310080#
(1673459703.606265) can0 0B530000#0B006D000101AC
(1673459703.607256) can0 0A310090#
(1673459703.607264) can0 0B310080#0064
(1673459703.608258) can0 0B310090#FFFFFFFF
(1673459703.608267) can0 0A310080#
(1673459703.609256) can0 0A310090#
(1673459703.609264) can0 0B310080#0064
(1673459703.610254) can0 0B310090#FFFFFFFF
(1673459704.228257) can0 0B200081#016301
(1673459704.228264) can0 0B200081#001101
(1673459704.229250) can0 0B200080#013801
(1673459704.229257) can0 0B200080#004901
(1673459704.230249) can0 0B200082#10
(1673459704.230257) can0 0B200087#0200
(1673459705.228273) can0 0B200081#016301
(1673459705.230251) can0 0B200081#001101
(1673459705.230253) can0 0B200080#013801
(1673459705.230255) can0 0B200080#004A01
(1673459705.230257) can0 0B200082#10
(1673459705.230265) can0 0B200087#0200
(1673459706.228274) can0 0B200081#016301
(1673459706.230263) can0 0B200081#001101
(1673459706.230265) can0 0B200080#013A01
(1673459706.230267) can0 0B200080#004B01
(1673459706.230269) can0 0B200082#10
(1673459706.230271) can0 0B200087#0200
(1673459707.227272) can0 0B200081#016301
(1673459707.229260) can0 0B200081#001101
(1673459707.229262) can0 0B200080#013801
(1673459707.229263) can0 0B200080#004901
(1673459707.229265) can0 0B200082#10
(1673459707.229267) can0 0B200087#0200
(1673459708.226275) can0 0B200081#016301
(1673459708.228263) can0 0B200081#001101
(1673459708.228265) can0 0B200080#013901
(1673459708.228267) can0 0B200080#004901
(1673459708.228274) can0 0B200082#10
(1673459708.228275) can0 0B200087#0200
(1673459709.226276) can0 0B200081#016301
(1673459709.228264) can0 0B200081#001101
(1673459709.228266) can0 0B200080#013701
(1673459709.228268) can0 0B200080#004C01
(1673459709.228270) can0 0B200082#10
(1673459709.228272) can0 0B200087#0200
(1673459709.503270) can0 0A20FF00#
(1673459709.503287) can0 0A41FF00#
(1673459709.504258) can0 0B200000#FF00FF000101AC
(1673459709.504267) can0 0A53FF00#
(1673459709.505258) can0 0B020000#FF00FF000101AC
(1673459709.505266) can0 0A43FF00#
(1673459709.506257) can0 0B020000#FF00FF000101AC
(1673459709.506265) can0 0A10FF00#
(1673459709.507257) can0 0B020000#FF00FF000101AC
(1673459709.507265) can0 0A31FF00#
(1673459709.508257) can0 0B020000#FF00FF000101AC
(1673459709.508265) can0 0B020000#FF00FF000101AC
(1673459709.509256) can0 0B310000#0D0106000101AC
(1673459709.509264) can0 0B530000#0B006B000101AC
(1673459709.510258) can0 0B530200#0B0061000101AC
(1673459709.510266) can0 0B530000#0B006C000101AC
(1673459709.511257) can0 0A310080#
(1673459709.511266) can0 0A310090#
(1673459709.512257) can0 0B310080#0064
(1673459709.512265) can0 0A310080#
(1673459709.513257) can0 0A310090#
(1673459709.513266) can0 0B310090#FFFFFFFF
(1673459709.514256) can0 0B310080#0064
(1673459709.514265) can0 0B310090#FFFFFFFF
(1673459709.518257) can0 0B530000#0B006D000101AC
(1673459710.225275) can0 0B200081#016301
(1673459710.227262) can0 0B200081#001101
(1673459710.227264) can0 0B200080#013A01
(1673459710.227266) can0 0B200080#004A01
(1673459710.227268) can0 0B200082#10
(1673459710.227273) can0 0B200087#0200
(1673459711.224251) can0 0B200081#016301
(1673459711.226241) can0 0B200081#001101
(1673459711.226243) can0 0B200080#013901
(1673459711.226245) can0 0B200080#004A01
(1673459711.226252) can0 0B200082#10
(1673459711.226254) can0 0B200087#0200
(1673459712.224271) can0 0B200081#016301
(1673459712.226257) can0 0B200081#001101
(1673459712.226259) can0 0B200080#013A01
(1673459712.226262) can0 0B200080#004A01
(1673459712.226264) can0 0B200082#10
(1673459712.226266) can0 0B200087#0200
(1673459713.223275) can0 0B200081#016301
(1673459713.225264) can0 0B200081#001101
(1673459713.225266) can0 0B200080#013A01
(1673459713.225267) can0 0B200080#004B01
(1673459713.225269) can0 0B200082#10
(1673459713.225274) can0 0B200087#0200
(1673459714.223272) can0 0B200081#016301
(1673459714.225263) can0 0B200081#001101
(1673459714.225265) can0 0B200080#013A01
(1673459714.225266) can0 0B200080#004B01
(1673459714.225268) can0 0B200082#10
(1673459714.225270) can0 0B200087#0200
(1673459715.222274) can0 0B200081#016301
(1673459715.224264) can0 0B200081#001101
(1673459715.224266) can0 0B200080#013801
(1673459715.224268) can0 0B200080#004901
(1673459715.224270) can0 0B200082#10
(1673459715.224277) can0 0B200087#0200
(1673459716.221272) can0 0B200081#016301
(1673459716.223254) can0 0B200081#001101
(1673459716.223257) can0 0B200080#013801
(1673459716.223259) can0 0B200080#004801
(1673459716.223268) can0 0B200082#10
(1673459716.223271) can0 0B200087#0200
(1673459717.221274) can0 0B200081#016301
(1673459717.223254) can0 0B200081#001101
(1673459717.223257) can0 0B200080#013701
(1673459717.223259) can0 0B200080#004901
(1673459717.223260) can0 0B200082#10
(1673459717.223262) can0 0B200087#0200
(1673459718.220277) can0 0B200081#016301
(1673459718.222264) can0 0B200081#001101
(1673459718.222266) can0 0B200080#013601
(1673459718.222267) can0 0B200080#004901
(1673459718.222269) can0 0B200082#10
(1673459718.222275) can0 0B200087#0200
(1673459719.219272) can0 0B200081#016301
(1673459719.219286) can0 0B200081#001101
(1673459719.220256) can0 0B200080#013A01
(1673459719.220263) can0 0B200080#004A01
(1673459719.221256) can0 0B200082#10
(1673459719.221262) can0 0B200087#0200
(1673459720.218271) can0 0B200081#016301
(1673459720.218285) can0 0B200081#001101
(1673459720.219257) can0 0B200080#013701
(1673459720.219264) can0 0B200080#004901
(1673459720.220257) can0 0B200082#10
(1673459720.220263) can0 0B200087#0200
(1673459721.217269) can0 0B200081#016301
(1673459721.218257) can0 0B200081#001101
(1673459721.218264) can0 0B200080#013A01
(1673459721.219257) can0 0B200080#004B01
(1673459721.219264) can0 0B200082#10
(1673459721.220256) can0 0B200087#0200
(1673459722.217271) can0 0B200081#016301
(1673459722.217285) can0 0B200081#001101
(1673459722.218257) can0 0B200080#013A01
(1673459722.218264) can0 0B200080#004B01
(1673459722.219257) can0 0B200082#10
(1673459722.219264) can0 0B200087#0200
(1673459723.216269) can0 0B200081#016301
(1673459723.217257) can0 0B200081#001101
(1673459723.217264) can0 0B200080#013A01
(1673459723.218257) can0 0B200080#004A01
(1673459723.218264) can0 0B200082#10
(1673459723.219257) can0 0B200087#0200
(1673459724.216274) can0 0B200081#016301
(1673459724.216289) can0 0B200081#001101
(1673459724.217245) can0 0B200080#013901
(1673459724.217254) can0 0B200080#004A01
(1673459724.218258) can0 0B200082#10
(1673459724.218267) can0 0B200087#0200
(1673459725.215268) can0 0B200081#016301
(1673459725.215281) can0 0B200081#001101
(1673459725.216258) can0 0B200080#013701
(1673459725.216265) can0 0B200080#004B01
(1673459725.217254) can0 0B200082#10
(1673459725.217261) can0 0B200087#0200
(1673459726.214262) can0 0B200081#016301
(1673459726.215255) can0 0B200081#001101
(1673459726.215260) can0 0B200080#013801
(1673459726.216255) can0 0B200080#004B01
(1673459726.216260) can0 0B200082#10
(1673459726.217253) can0 0B200087#0200
(1673459727.215275) can0 0B200081#016301
(1673459727.217256) can0 0B200081#001101
(1673459727.217258) can0 0B200080#013801
(1673459727.217260) can0 0B200080#004901
(1673459727.217262) can0 0B200082#10
(1673459727.217264) can0 0B200087#0200
(1673459728.214277) can0 0B200081#016301
(1673459728.216254) can0 0B200081#001101
(1673459728.216256) can0 0B200080#013901
(1673459728.216258) can0 0B200080#004A01
(1673459728.216260) can0 0B200082#10
(1673459728.216262) can0 0B200087#0200
(1673459729.213278) can0 0B200081#016301
(1673459729.215267) can0 0B200081#001101
(1673459729.215269) can0 0B200080#013A01
(1673459729.215271) can0 0B200080#004A01
(1673459729.215279) can0 0B200082#10
(1673459729.215281) can0 0B200087#0200
(1673459730.213278) can0 0B200081#016301
(1673459730.215268) can0 0B200081#001101
(1673459730.215271) can0 0B200080#013901
(1673459730.215273) can0 0B200080#004A01
(1673459730.215275) can0 0B200082#10
(1673459730.215277) can0 0B200087#0200
(1673459731.212279) can0 0B200081#016301
(1673459731.214268) can0 0B200081#001101
(1673459731.214270) can0 0B200080#013901
(1673459731.214272) can0 0B200080#004A01
(1673459731.214274) can0 0B200082#10
(1673459731.214281) can0 0B200087#0200
(1673459732.211276) can0 0B200081#016301
(1673459732.213266) can0 0B200081#001101
(1673459732.213268) can0 0B200080#013901
(1673459732.213270) can0 0B200080#004B01
(1673459732.213276) can0 0B200082#10
(1673459732.213277) can0 0B200087#0200
(1673459733.211283) can0 0B200081#016301
(1673459733.213267) can0 0B200081#001101
(1673459733.213269) can0 0B200080#013801
(1673459733.213270) can0 0B200080#004B01
(1673459733.213272) can0 0B200082#10
(1673459733.213274) can0 0B200087#0200
(1673459734.210278) can0 0B200081#016301
(1673459734.212268) can0 0B200081#001101
(1673459734.212270) can0 0B200080#013901
(1673459734.212272) can0 0B200080#004A01
(1673459734.212273) can0 0B200082#10
(1673459734.212280) can0 0B200087#0200
(1673459735.210278) can0 0B200081#016301
(1673459735.212269) can0 0B200081#001101
(1673459735.212271) can0 0B200080#013801
(1673459735.212273) can0 0B200080#004901
(1673459735.212275) can0 0B200082#10
(1673459735.212277) can0 0B200087#0200
(1673459736.209281) can0 0B200081#016301
(1673459736.211268) can0 0B200081#001101
(1673459736.211270) can0 0B200080#013901
(1673459736.211272) can0 0B200080#004A01
(1673459736.211274) can0 0B200082#10
(1673459736.211280) can0 0B200087#0200
(1673459737.208281) can0 0B200081#016301
(1673459737.210256) can0 0B200081#001101
(1673459737.210257) can0 0B200080#013A01
(1673459737.210259) can0 0B200080#004901
(1673459737.210265) can0 0B200082#10
(1673459737.210266) can0 0B200087#0200
(1673459738.208256) can0 0B200081#016301
(1673459738.210244) can0 0B200081#001101
(1673459738.210246) can0 0B200080#013701
(1673459738.210247) can0 0B200080#004A01
(1673459738.210250) can0 0B200082#10
(1673459738.210252) can0 0B200087#0200
(1673459739.207276) can0 0B200081#016301
(1673459739.209269) can0 0B200081#001101
(1673459739.209271) can0 0B200080#013901
(1673459739.209273) can0 0B200080#004901
(1673459739.209275) can0 0B200082#10
(1673459739.209281) can0 0B200087#0200
(1673459740.207281) can0 0B200081#016301
(1673459740.209270) can0 0B200081#001101
(1673459740.209272) can0 0B200080#013A01
(1673459740.209274) can0 0B200080#004A01
(1673459740.209276) can0 0B200082#10
(1673459740.209278) can0 0B200087#0200
(1673459741.205272) can0 0B200081#016301
(1673459741.205285) can0 0B200081#001101
(1673459741.206258) can0 0B200080#013901
(1673459741.206263) can0 0B200080#004801
(1673459741.207258) can0 0B200082#10
(1673459741.207263) can0 0B200087#0200
(1673459742.204269) can0 0B200081#016301
(1673459742.205257) can0 0B200081#001101
(1673459742.205263) can0 0B200080#013801
(1673459742.206258) can0 0B200080#004B01
(1673459742.206263) can0 0B200082#10
(1673459742.207256) can0 0B200087#0200
(1673459743.204274) can0 0B200081#016301
(1673459743.204287) can0 0B200081#001101
(1673459743.205259) can0 0B200080#013901
(1673459743.205266) can0 0B200080#004901
(1673459743.206260) can0 0B200082#10
(1673459743.206267) can0 0B200087#0200
(1673459744.203271) can0 0B200081#016301
(1673459744.204260) can0 0B200081#001101
(1673459744.204267) can0 0B200080#013801
(1673459744.205260) can0 0B200080#004901
(1673459744.205266) can0 0B200082#10
(1673459744.206258) can0 0B200087#0200
(1673459745.203263) can0 0B200081#016301
(1673459745.203270) can0 0B200081#001101
(1673459745.204261) can0 0B200080#013A01
(1673459745.204268) can0 0B200080#004B01
(1673459745.205261) can0 0B200082#10
(1673459745.205267) can0 0B200087#0200
(1673459746.202263) can0 0B200081#016301
(1673459746.202269) can0 0B200081#001101
(1673459746.203259) can0 0B200080#013701
(1673459746.203264) can0 0B200080#004A01
(1673459746.204257) can0 0B200082#10
(1673459746.204263) can0 0B200087#0200
(1673459747.201263) can0 0B200081#016301
(1673459747.202262) can0 0B200081#001101
(1673459747.202269) can0 0B200080#013901
(1673459747.203261) can0 0B200080#004C01
(1673459747.203269) can0 0B200082#10
(1673459747.204260) can0 0B200087#0200
(1673459748.202280) can0 0B200081#016301
(1673459748.204256) can0 0B200081#001101
(1673459748.204258) can0 0B200080#013901
(1673459748.204260) can0 0B200080#004C01
(1673459748.204262) can0 0B200082#10
(1673459748.204263) can0 0B200087#0200
(1673459749.201281) can0 0B200081#016301
(1673459749.203257) can0 0B200081#001101
(1673459749.203260) can0 0B200080#013A01
(1673459749.203261) can0 0B200080#004C01
(1673459749.203263) can0 0B200082#10
(1673459749.203265) can0 0B200087#0200
(1673459750.200283) can0 0B200081#016301
(1673459750.202271) can0 0B200081#001101
(1673459750.202273) can0 0B200080#013801
(1673459750.202275) can0 0B200080#004B01
(1673459750.202277) can0 0B200082#10
(1673459750.202282) can0 0B200087#0200
(1673459751.200280) can0 0B200081#016301
(1673459751.202271) can0 0B200081#001101
(1673459751.202273) can0 0B200080#013A01
(1673459751.202275) can0 0B200080#004A01
(1673459751.202277) can0 0B200082#10
(1673459751.202279) can0 0B200087#0200
(1673459752.199282) can0 0B200081#016301
(1673459752.201271) can0 0B200081#001101
(1673459752.201273) can0 0B200080#013801
(1673459752.201276) can0 0B200080#004901
(1673459752.201277) can0 0B200082#10
(1673459752.201284) can0 0B200087#0200
(1673459753.198283) can0 0B200081#016301
(1673459753.200271) can0 0B200081#001101
(1673459753.200274) can0 0B200080#013B01
(1673459753.200276) can0 0B200080#004A01
(1673459753.200283) can0 0B200082#10
(1673459753.200284) can0 0B200087#0200
(1673459754.198284) can0 0B200081#016301
(1673459754.200273) can0 0B200081#001101
(1673459754.200276) can0 0B200080#013901
(1673459754.200278) can0 0B200080#004A01
(1673459754.200280) can0 0B200082#10
(1673459754.200281) can0 0B200087#0200
(1673459755.197282) can0 0B200081#016301
(1673459755.199262) can0 0B200081#001101
(1673459755.199265) can0 0B200080#013801
(1673459755.199267) can0 0B200080#004A01
(1673459755.199268) can0 0B200082#10
(1673459755.199276) can0 0B200087#0200
(1673459756.197284) can0 0B200081#016301
(1673459756.199258) can0 0B200081#001101
(1673459756.199260) can0 0B200080#013801
(1673459756.199262) can0 0B200080#004A01
(1673459756.199263) can0 0B200082#10
(1673459756.199265) can0 0B200087#0200
(1673459757.196281) can0 0B200081#016301
(1673459757.198272) can0 0B200081#001101
(1673459757.198274) can0 0B200080#013901
(1673459757.198275) can0 0B200080#004B01
(1673459757.198277) can0 0B200082#10
(1673459757.198278) can0 0B200087#0200
(1673459758.195284) can0 0B200081#016301
(1673459758.197272) can0 0B200081#001101
(1673459758.197274) can0 0B200080#013801
(1673459758.197275) can0 0B200080#004901
(1673459758.197281) can0 0B200082#10
(1673459758.197282) can0 0B200087#0200
(1673459759.195284) can0 0B200081#016301
(1673459759.197259) can0 0B200081#001101
(1673459759.197261) can0 0B200080#013A01
(1673459759.197262) can0 0B200080#004901
(1673459759.197264) can0 0B200082#10
(1673459759.197266) can0 0B200087#0200
(1673459760.194284) can0 0B200081#016301
(1673459760.196265) can0 0B200081#001101
(1673459760.196267) can0 0B200080#013701
(1673459760.196269) can0 0B200080#004C01
(1673459760.196271) can0 0B200082#10
(1673459760.196278) can0 0B200087#0200
(1673459761.193284) can0 0B200081#016301
(1673459761.195263) can0 0B200081#001101
(1673459761.195265) can0 0B200080#013801
(1673459761.195268) can0 0B200080#004A01
(1673459761.195274) can0 0B200082#10
(1673459761.195276) can0 0B200087#0200
(1673459762.192271) can0 0B200081#016301
(1673459762.192284) can0 0B200081#001101
(1673459762.193259) can0 0B200080#013901
(1673459762.193265) can0 0B200080#004D01
(1673459762.194258) can0 0B200082#10
(1673459762.194264) can0 0B200087#0200
(1673459763.191275) can0 0B200081#016301
(1673459763.192261) can0 0B200081#001101
(1673459763.192266) can0 0B200080#013A01
(1673459763.193260) can0 0B200080#004901
(1673459763.193265) can0 0B200082#10
(1673459763.194260) can0 0B200087#0200
(1673459763.608281) can0 0A20FF00#
(1673459763.610273) can0 0A41FF00#
(1673459763.610276) can0 0B200000#FF00FF000101AC
(1673459763.610278) can0 0A53FF00#
(1673459763.610280) can0 0B020000#FF00FF000101AC
(1673459763.610287) can0 0A43FF00#
(1673459763.610289) can0 0B020000#FF00FF000101AC
(1673459763.611264) can0 0A10FF00#
(1673459763.611271) can0 0B020000#FF00FF000101AC
(1673459763.611273) can0 0A31FF00#
(1673459763.612261) can0 0B020000#FF00FF000101AC
(1673459763.612268) can0 0B020000#FF00FF000101AC
(1673459763.613262) can0 0B310000#0D0106000101AC
(1673459763.615275) can0 0A310080#
(1673459763.615281) can0 0A310090#
(1673459763.616264) can0 0B310080#0064
(1673459763.617264) can0 0B310090#FFFFFFFF
(1673459763.620265) can0 0B530000#0B006D000101AC
(1673459763.620271) can0 0B530000#0B006B000101AC
(1673459763.621262) can0 0B530200#0B0061000101AC
(1673459763.627264) can0 0B530000#0B006C000101AC
(1673459764.191284) can0 0B200081#016301
(1673459764.191302) can0 0B200081#001101
(1673459764.192268) can0 0B200080#013901
(1673459764.192277) can0 0B200080#004C01
(1673459764.193268) can0 0B200082#10
(1673459764.193277) can0 0B200087#0200
(1673459765.190279) can0 0B200081#016301
(1673459765.191267) can0 0B200081#001101
(1673459765.191274) can0 0B200080#013801
(1673459765.192264) can0 0B200080#004B01
(1673459765.192271) can0 0B200082#10
(1673459765.193263) can0 0B200087#0200
(1673459766.189280) can0 0B200081#016301
(1673459766.190266) can0 0B200081#001101
(1673459766.190272) can0 0B200080#013801
(1673459766.191264) can0 0B200080#004C01
(1673459766.191271) can0 0B200082#10
(1673459766.192265) can0 0B200087#0200
(1673459767.189286) can0 0B200081#016301
(1673459767.189302) can0 0B200081#001101
(1673459767.190269) can0 0B200080#013801
(1673459767.190277) can0 0B200080#004A01
(1673459767.191268) can0 0B200082#10
(1673459767.191276) can0 0B200087#0200
(1673459768.188274) can0 0B200081#016301
(1673459768.189261) can0 0B200081#001101
(1673459768.189267) can0 0B200080#013B01
(1673459768.190261) can0 0B200080#004B01
(1673459768.190267) can0 0B200082#10
(1673459768.191262) can0 0B200087#0200
(1673459769.189263) can0 0B200081#016301
(1673459769.191254) can0 0B200081#001101
(1673459769.191256) can0 0B200080#013A01
(1673459769.191258) can0 0B200080#004A01
(1673459769.191260) can0 0B200082#10
(1673459769.191261) can0 0B200087#0200
(1673459769.510275) can0 0A20FF00#
(1673459769.510287) can0 0A41FF00#
(1673459769.511261) can0 0B200000#FF00FF000101AC
(1673459769.511266) can0 0A53FF00#
(1673459769.512263) can0 0B020000#FF00FF000101AC
(1673459769.512268) can0 0A43FF00#
(1673459769.513262) can0 0B020000#FF00FF000101AC
(1673459769.513267) can0 0A10FF00#
(1673459769.514264) can0 0B020000#FF00FF000101AC
(1673459769.514269) can0 0A31FF00#
(1673459769.514271) can0 0B020000#FF00FF000101AC
(1673459769.515263) can0 0B020000#FF00FF000101AC
(1673459769.515269) can0 0B310000#0D0106000101AC
(1673459769.517262) can0 0B530000#0B006C000101AC
(1673459769.517267) can0 0A310080#
(1673459769.518263) can0 0B530000#0B006B000101AC
(1673459769.518268) can0 0A310090#
(1673459769.519263) can0 0B310080#0064
(1673459769.519268) can0 0B530200#0B0061000101AC
(1673459769.520264) can0 0B310090#FFFFFFFF
(1673459769.520269) can0 0B530000#0B006D000101AC
(1673459769.521261) can0 0A310080#
(1673459769.521266) can0 0A310090#
(1673459769.522263) can0 0B310080#0064
(1673459769.522268) can0 0B310090#FFFFFFFF
(1673459770.188284) can0 0B200081#016301
(1673459770.190266) can0 0B200081#001101
(1673459770.190268) can0 0B200080#013A01
(1673459770.190270) can0 0B200080#004A01
(1673459770.190272) can0 0B200082#10
(1673459770.190274) can0 0B200087#0200
(1673459771.187287) can0 0B200081#016301
(1673459771.189274) can0 0B200081#001101
(1673459771.189276) can0 0B200080#013A01
(1673459771.189277) can0 0B200080#004A01
(1673459771.189279) can0 0B200082#10
(1673459771.189284) can0 0B200087#0200
(1673459772.187284) can0 0B200081#016301
(1673459772.189276) can0 0B200081#001101
(1673459772.189278) can0 0B200080#013901
(1673459772.189280) can0 0B200080#004901
(1673459772.189282) can0 0B200082#10
(1673459772.189283) can0 0B200087#0200
(1673459773.186286) can0 0B200081#016301
(1673459773.188274) can0 0B200081#001101
(1673459773.188276) can0 0B200080#013A01
(1673459773.188278) can0 0B200080#004A01
(1673459773.188280) can0 0B200082#10
(1673459773.188285) can0 0B200087#0200
(1673459774.185287) can0 0B200081#016301
(1673459774.187276) can0 0B200081#001101
(1673459774.187278) can0 0B200080#013801
(1673459774.187281) can0 0B200080#004A01
(1673459774.187287) can0 0B200082#10
(1673459774.187289) can0 0B200087#0200
(1673459775.185290) can0 0B200081#016301
(1673459775.187278) can0 0B200081#001101
(1673459775.187280) can0 0B200080#013901
(1673459775.187282) can0 0B200080#004B01
(1673459775.187284) can0 0B200082#10
(1673459775.187286) can0 0B200087#0200
(1673459776.184285) can0 0B200081#016301
(1673459776.186277) can0 0B200081#001101
(1673459776.186279) can0 0B200080#013901
(1673459776.186282) can0 0B200080#004D01
(1673459776.186283) can0 0B200082#10
(1673459776.186290) can0 0B200087#0200
(1673459777.184285) can0 0B200081#016301
(1673459777.186276) can0 0B200081#001101
(1673459777.186278) can0 0B200080#013901
(1673459777.186280) can0 0B200080#004C01
(1673459777.186282) can0 0B200082#10
(1673459777.186284) can0 0B200087#0200
(1673459778.183288) can0 0B200081#016301
